 ****** HSPICE  --  A-2007.09  32-BIT    (Aug 28 2007) 02:59:15 09/26/2014 winnt
  Copyright (C) 2007 Synopsys, Inc. All Rights Reserved.                        
  Unpublished-rights reserved under US copyright laws.
  This program is protected by law and is subject to the 
  terms and conditions of the license agreement found in:
    C:\synopsys\Hspice_A-2007.09\license.txt
  Use of this program is your acceptance to be bound by this 
  license agreement. HSPICE is the trademark of Synopsys, Inc.
  Input File: f:\3_tehran_mux21_iwo_ga_id ) acsij-2014-3-5-560\matlabcode_iwo_ga
  lic:  
  lic: FLEXlm: v8.5b 
  lic: USER:   Farshid              HOSTNAME: Farshid-PC 
  lic: HOSTID: "a4badbbd94a3 70f1a1ab2e44" PID:      1308 
  lic: Using FLEXlm license file: 
  lic: C:\synopsys\Hspice_A-2007.09\hspice_2007-09.lic 
  lic: Checkout 1 hspice;  Encryption code: AD47C1C891DA5D596A45 
  lic: License/Maintenance for hspice will expire on 31-dec-2020/2007.9 
  lic: NODE LOCKED license on hostid "a4badbbd94a3 70f1a1ab2e44" 
  lic:   
 Init: read install configuration file: C:\synopsys\Hspice_A-2007.09\meta.cfg
 Init: hspice initialization file: C:\synopsys\Hspice_A-2007.09\hspice.ini




 .options list node post

 .option scale=1u

 mp1 1 s vdd vdd pch l=0.18        w=0.21954397                                                                                                                                             			
 mp2 1 s 0 0 nch l=0.18            w=0.42517228                                                                                                                                                		
 mn1 y s f f nch l=0.18            w=1.61227782                                                                                                                                                                  			
 mn2 x 1 f f nch l=0.18            w=0.295673218                                                                                                                                                             			
                                                                                                                   			
 vdd vdd 0 5
 vx x 0 5v
 vy y 0 5v
 vs s 0 pulse 0  5  2n 1n 1n 10n 20n
 .tran 200p 200n
 .print tran v(x) v(y) v(s) v(f)

 .model  pch pmos  level=1
 .model  nch nmos  level=1

 .print tran power

 .param vdd=5

 .meas tran avgpower avg power from = 0 to = 20n
 .meas tran maxpower max power
 scientific notation:
 a=10**-18  f=10**-15  p=10**-12  n=10**-9  u=10**-6
 m=10**-3   k=10**3    x=10**6    g=10**9 

 ***********************************************************************
 ** runlvl is invoked, you can disable it by:
      a) Add option runlvl=0 to your current simulation job.
      b) Copy $installdir/hspice.ini to your HOME directory and
         customize it by adding option runlvl=0, which disables
         it for all of your simulation jobs.
      c) Re-invoke $installdir/bin/config program and unselect the
         option runlvl setting in box 'hspice.ini' which disables
         it for whole group simulation jobs.

 ** runlvl is invoked, some options are ignored or automatically set:
      Options below are automatically set(user setting will overwrite them):
      if runlvl=6,            .option bypass=0
      if runlvl=[1|2|3|4|5],  .option bypass=2

      Options below are ignored, they are replaced by automated algorithms:
        lvltim    dvdt      ft    fast   trtol  absvar  relvar
          relq  chgtol    dvtr    imin    itl3    rmax

 ** runlvl is invoked, actual option value used by HSPICE are:
       runlvl= 3       bypass= 2      mbypass=   2.00   bytol= 100.00u
 ***********************************************************************



 circuit parameter definitions
  parameter          =  value 

     0:vdd                                                     =   5.0000       
     0:avgpower                                                =   0.           
     0:maxpower                                                =   0.           




 constants  - tnom         kt           vt           gapsi        ni
            298.1500     4.116e-21     25.6918m      1.1156     1.256e+16  
1****** HSPICE  --  A-2007.09  32-BIT    (Aug 28 2007) 02:59:15 09/26/2014 winnt
 ******  
 *2:1 mux static nmos for article tehran                                        
  ******  mos   model parameters           tnom=  25.000 temp=  25.000          
 ******  
 ***************************************************************************
 *** common model parameters  model name:   0:pch      model type:pmos   ***
 ***************************************************************************
     names  values   units     names  values   units     names  values   units
     -----  ------   -----     -----  ------   -----     -----  ------   -----

   1*** geometry parameters ***
       ld=   0.    meters      lmlt=   1.00                wd=   0.    meters 
     wmlt=   1.00                xl=   0.    meters        xw=   0.    meters 
     lref=   0.    meters      wref=   0.    meters      lref=   0.    meters 
     wref=   0.    meters     xlref=   0.    meters     xwref=   0.    meters 
     lmin=   0.    meters      wmin=   0.    meters      lmax=   0.    meters 
     wmax=   0.    meters 

   2*** threshold voltage parameters ***
      vto=-133.88m volts        nss=   0.    1/cm**2      tpg=   1.00         
      phi= 579.84m volts      gamma= 527.63m v**0.5      bulk=  gnd           
    ngate=   0.    cm**3       nsub= 1.0e+15 1/cm**3   delvto=   0.    volts  

   3*** gate overlap capacitance parameters ***
     cgbo=   0.    f/meter     cgdo=   0.    f/meter     cgso=   0.    f/meter
     meto=   0.    meters 

   4*** gate capacitance parameters ***
    capop=   2.00               cf1=   0.    volts        cf2= 100.00m volts  
      cf3=   1.00  volts        cf4=  50.00               cf5= 666.67m        
      cf6= 500.00               xqc= 500.00m              tox= 100.00n meters 
      cox= 345.31u f/m**2 

   5*** diffusion parasitic parameters ***
      acm=   0.                  is=  10.00f amps          js=   0.    a/m**2 
      jsw=   0.    amp/m        nds=   1.00               cbd=   0.    farad  
      cbs=   0.    farad         cj= 101.85u f/m**2      cjsw=   0.    f/m    
   cjgate=   0.    f/m           mj= 500.00m             mjsw= 330.00m        
       pb= 800.00m volts        php= 800.00m volts         tt=   0.    secs   
     hdif=   0.    meters      ldif=   0.    meters        rd=   0.    ohms   
       rs=   0.    ohms         rsh=   0.    ohms/sq       fc=   0.           
    alpha=   0.                 vcr=   0.    volts      iirat=   0.           
      rdc=   0.    ohms         rsc=   0.    ohms           n=   1.00         
     vnds=  -1.00  volts  

   6*** temperature effect parameters ***
     tlev=   0.               tlevc=   0.                  eg=   1.11  ev     
     gap1= 702.00u ev/deg      gap2=   1.11k deg          xti=   0.           
      bex=  -1.50               tcv=   0.    v/deg k      trd=   0.    /deg   
      trs=   0.    /deg         cta=   0.    /deg         ctp=   0.    /deg   

   7*** noise parameters ***
       kf=   0.                  af=   1.00              nlev=   2.00         
   gdsnoi=   1.00         

   ***  level  1  model parameters  ***

   lambda=   0.    /v            kp=   8.63u a/v**2 
 ***************************************************************************
 *** common model parameters  model name:   0:nch      model type:nmos   ***
 ***************************************************************************
     names  values   units     names  values   units     names  values   units
     -----  ------   -----     -----  ------   -----     -----  ------   -----

   1*** geometry parameters ***
       ld=   0.    meters      lmlt=   1.00                wd=   0.    meters 
     wmlt=   1.00                xl=   0.    meters        xw=   0.    meters 
     lref=   0.    meters      wref=   0.    meters      lref=   0.    meters 
     wref=   0.    meters     xlref=   0.    meters     xwref=   0.    meters 
     lmin=   0.    meters      wmin=   0.    meters      lmax=   0.    meters 
     wmax=   0.    meters 

   2*** threshold voltage parameters ***
      vto= 133.88m volts        nss=   0.    1/cm**2      tpg=   1.00         
      phi= 579.84m volts      gamma= 527.63m v**0.5      bulk=  gnd           
    ngate=   0.    cm**3       nsub= 1.0e+15 1/cm**3   delvto=   0.    volts  

   3*** gate overlap capacitance parameters ***
     cgbo=   0.    f/meter     cgdo=   0.    f/meter     cgso=   0.    f/meter
     meto=   0.    meters 

   4*** gate capacitance parameters ***
    capop=   2.00               cf1=   0.    volts        cf2= 100.00m volts  
      cf3=   1.00  volts        cf4=  50.00               cf5= 666.67m        
      cf6= 500.00               xqc= 500.00m              tox= 100.00n meters 
      cox= 345.31u f/m**2 

   5*** diffusion parasitic parameters ***
      acm=   0.                  is=  10.00f amps          js=   0.    a/m**2 
      jsw=   0.    amp/m        nds=   1.00               cbd=   0.    farad  
      cbs=   0.    farad         cj= 101.85u f/m**2      cjsw=   0.    f/m    
   cjgate=   0.    f/m           mj= 500.00m             mjsw= 330.00m        
       pb= 800.00m volts        php= 800.00m volts         tt=   0.    secs   
     hdif=   0.    meters      ldif=   0.    meters        rd=   0.    ohms   
       rs=   0.    ohms         rsh=   0.    ohms/sq       fc=   0.           
    alpha=   0.                 vcr=   0.    volts      iirat=   0.           
      rdc=   0.    ohms         rsc=   0.    ohms           n=   1.00         
     vnds=  -1.00  volts  

   6*** temperature effect parameters ***
     tlev=   0.               tlevc=   0.                  eg=   1.11  ev     
     gap1= 702.00u ev/deg      gap2=   1.11k deg          xti=   0.           
      bex=  -1.50               tcv=   0.    v/deg k      trd=   0.    /deg   
      trs=   0.    /deg         cta=   0.    /deg         ctp=   0.    /deg   

   7*** noise parameters ***
       kf=   0.                  af=   1.00              nlev=   2.00         
   gdsnoi=   1.00         

   ***  level  1  model parameters  ***

   lambda=   0.    /v            kp=  20.72u a/v**2 

 **warning** dc voltage reset to initial transient source value
             in source        0:vs                  new dc=  0.0000D+00

1****** HSPICE  --  A-2007.09  32-BIT    (Aug 28 2007) 02:59:15 09/26/2014 winnt
 ******  
 *2:1 mux static nmos for article tehran                                        
  ******  circuit element summary          tnom=  25.000 temp=  25.000          
 ******  


 **** independent sources

     name         node1        node2      dc volt    ac mag    ac phase    type
        0:vdd            0:vdd            0:0           5.0000     0.         0.      dc   
        0:vx             0:x              0:0           5.0000     0.         0.      dc   
        0:vy             0:y              0:0           5.0000     0.         0.      dc   
        0:vs             0:s              0:0           0.         0.         0.      pulse
             initial value     0.     
             pulsed value.     5.0000 
             delay time...     2.0000n
             risetime.....     1.0000n
             falltime.....     1.0000n
             width........    10.0000n
             period.......    20.0000n



 **** mosfets
  
 element name       0:mp1          0:mp2          0:mn1          0:mn2      
 drain              0:1            0:1            0:y            0:x        
 gate               0:s            0:s            0:s            0:1        
 source             0:vdd          0:0            0:f            0:f        
 bulk               0:vdd          0:0            0:f            0:f        
 model              0:pch          0:nch          0:nch          0:nch      
 w eff            219.5440n      425.1723n        1.6123u      295.6732n    
 l eff            180.0000n      180.0000n      180.0000n      180.0000n    
 rd eff             0.             0.             0.             0.         
 rs eff             0.             0.             0.             0.         
 cdsat             10.0000f       10.0000f       10.0000f       10.0000f    
 cssat             10.0000f       10.0000f       10.0000f       10.0000f    
 capbd              0.             0.             0.             0.         
 capbs              0.             0.             0.             0.         
 temp              25.0000        25.0000        25.0000        25.0000     
 aic                                                                        
  
1****** HSPICE  --  A-2007.09  32-BIT    (Aug 28 2007) 02:59:15 09/26/2014 winnt
 ******  
 *2:1 mux static nmos for article tehran                                        
  ******  element node table                                                    
 ******  
 0                vdd           vx            vy            vs           
                 mp2:s         mp2:b        
 1                mp1:d         mp2:d         mn2:g        
 f                mn1:s         mn1:b         mn2:s         mn2:b        
 s                vs            mp1:g         mp2:g         mn1:g        
 vdd              vdd           mp1:s         mp1:b        
 x                vx            mn2:d        
 y                vy            mn1:d        
1****** HSPICE  --  A-2007.09  32-BIT    (Aug 28 2007) 02:59:15 09/26/2014 winnt
 ******  
 *2:1 mux static nmos for article tehran                                        
  ******  operating point information      tnom=  25.000 temp=  25.000          
 ******  
 ***** operating point status is voltage   simulation time is     0.     
    node    =voltage      node    =voltage      node    =voltage

 +0:1       =   5.0000  0:f       =   5.0000  0:s       =   0.     
 +0:vdd     =   5.0000  0:x       =   5.0000  0:y       =   5.0000 

 ******  
 *2:1 mux static nmos for article tehran                                        
  ******  transient analysis               tnom=  25.000 temp=  25.000          
 ******  
x

        time    voltage      voltage      voltage      voltage    
                     x            y            s            f     
    0.            5.0000       5.0000       0.           5.0000   
  200.00000p      5.0000       5.0000       0.           5.0000   
  400.00000p      5.0000       5.0000       0.           5.0000   
  600.00000p      5.0000       5.0000       0.           5.0000   
  800.00000p      5.0000       5.0000       0.           5.0000   
    1.00000n      5.0000       5.0000       0.           5.0000   
    1.20000n      5.0000       5.0000       0.           5.0000   
    1.40000n      5.0000       5.0000       0.           5.0000   
    1.60000n      5.0000       5.0000       0.           5.0000   
    1.80000n      5.0000       5.0000       0.           5.0000   
    2.00000n      5.0000       5.0000       0.           5.0000   
    2.20000n      5.0000       5.0000       1.0000       5.4340   
    2.40000n      5.0000       5.0000       2.0000       5.3333   
    2.60000n      5.0000       5.0000       3.0000       5.4384   
    2.80000n      5.0000       5.0000       4.0000       5.4364   
    3.00000n      5.0000       5.0000       5.0000       5.4031   
    3.20000n      5.0000       5.0000       5.0000       5.3247   
    3.40000n      5.0000       5.0000       5.0000       5.3094   
    3.60000n      5.0000       5.0000       5.0000       5.2988   
    3.80000n      5.0000       5.0000       5.0000       5.2918   
    4.00000n      5.0000       5.0000       5.0000       5.2863   
    4.20000n      5.0000       5.0000       5.0000       5.2809   
    4.40000n      5.0000       5.0000       5.0000       5.2766   
    4.60000n      5.0000       5.0000       5.0000       5.2740   
    4.80000n      5.0000       5.0000       5.0000       5.2715   
    5.00000n      5.0000       5.0000       5.0000       5.2690   
    5.20000n      5.0000       5.0000       5.0000       5.2664   
    5.40000n      5.0000       5.0000       5.0000       5.2639   
    5.60000n      5.0000       5.0000       5.0000       5.2613   
    5.80000n      5.0000       5.0000       5.0000       5.2590   
    6.00000n      5.0000       5.0000       5.0000       5.2575   
    6.20000n      5.0000       5.0000       5.0000       5.2561   
    6.40000n      5.0000       5.0000       5.0000       5.2546   
    6.60000n      5.0000       5.0000       5.0000       5.2532   
    6.80000n      5.0000       5.0000       5.0000       5.2517   
    7.00000n      5.0000       5.0000       5.0000       5.2503   
    7.20000n      5.0000       5.0000       5.0000       5.2488   
    7.40000n      5.0000       5.0000       5.0000       5.2474   
    7.60000n      5.0000       5.0000       5.0000       5.2459   
    7.80000n      5.0000       5.0000       5.0000       5.2445   
    8.00000n      5.0000       5.0000       5.0000       5.2430   
    8.20000n      5.0000       5.0000       5.0000       5.2421   
    8.40000n      5.0000       5.0000       5.0000       5.2414   
    8.60000n      5.0000       5.0000       5.0000       5.2406   
    8.80000n      5.0000       5.0000       5.0000       5.2399   
    9.00000n      5.0000       5.0000       5.0000       5.2391   
    9.20000n      5.0000       5.0000       5.0000       5.2384   
    9.40000n      5.0000       5.0000       5.0000       5.2377   
    9.60000n      5.0000       5.0000       5.0000       5.2369   
    9.80000n      5.0000       5.0000       5.0000       5.2362   
   10.00000n      5.0000       5.0000       5.0000       5.2354   
   10.20000n      5.0000       5.0000       5.0000       5.2347   
   10.40000n      5.0000       5.0000       5.0000       5.2339   
   10.60000n      5.0000       5.0000       5.0000       5.2332   
   10.80000n      5.0000       5.0000       5.0000       5.2325   
   11.00000n      5.0000       5.0000       5.0000       5.2317   
   11.20000n      5.0000       5.0000       5.0000       5.2310   
   11.40000n      5.0000       5.0000       5.0000       5.2302   
   11.60000n      5.0000       5.0000       5.0000       5.2295   
   11.80000n      5.0000       5.0000       5.0000       5.2288   
   12.00000n      5.0000       5.0000       5.0000       5.2283   
   12.20000n      5.0000       5.0000       5.0000       5.2278   
   12.40000n      5.0000       5.0000       5.0000       5.2273   
   12.60000n      5.0000       5.0000       5.0000       5.2269   
   12.80000n      5.0000       5.0000       5.0000       5.2264   
   13.00000n      5.0000       5.0000       5.0000       5.2259   
   13.20000n      5.0000       5.0000       4.0000       4.5552   
   13.40000n      5.0000       5.0000       3.0000       3.8127   
   13.60000n      5.0000       5.0000       2.0000       3.2649   
   13.80000n      5.0000       5.0000       1.0000       4.0517   
   14.00000n      5.0000       5.0000       0.           4.6845   
   14.20000n      5.0000       5.0000       0.           4.8348   
   14.40000n      5.0000       5.0000       0.           4.8520   
   14.60000n      5.0000       5.0000       0.           4.8561   
   14.80000n      5.0000       5.0000       0.           4.8588   
   15.00000n      5.0000       5.0000       0.           4.8595   
   15.20000n      5.0000       5.0000       0.           4.8601   
   15.40000n      5.0000       5.0000       0.           4.8607   
